
T2A3C 000:063 SEGGER J-Link V6.10i Log File (0000ms, 0015ms total)
T2A3C 000:063 DLL Compiled: Oct 25 2016 19:31:51 (0000ms, 0015ms total)
T2A3C 000:063 Logging started @ 2018-01-18 19:13 (0000ms, 0015ms total)
T2A3C 000:063 JLINK_SetWarnOutHandler(...) (0000ms, 0015ms total)
T2A3C 000:063 JLINK_OpenEx(...)
Firmware: J-Link ARM V8 compiled Nov 28 2014 13:44:46
Hardware: V8.00
S/N: 304439649
Feature(s): RDI,FlashDL,FlashBP,JFlash,GDBFULLWEBSRV Webserver running on local port 19080 (0010ms, 0025ms total)
T2A3C 000:063   returns O.K. (0010ms, 0025ms total)
T2A3C 000:073 JLINK_SetErrorOutHandler(...) (0000ms, 0025ms total)
T2A3C 000:073 JLINK_ExecCommand("ProjectFile = "C:\Users\RoboMasters\Downloads\bitbucket\vision\HareKles2018_EE_Program\Hero_Test\pwm\USER\JLinkSettings.ini"", ...).   returns 0x00 (0087ms, 0112ms total)
T2A3C 000:161 JLINK_ExecCommand("Device = STM32F427IIHx", ...). Device "STM32F427II" selected.  returns 0x00 (0002ms, 0114ms total)
T2A3C 000:163 JLINK_ExecCommand("DisableConnectionTimeout", ...).   returns 0x01 (0000ms, 0114ms total)
T2A3C 000:163 JLINK_GetHardwareVersion()  returns 0x13880 (0000ms, 0114ms total)
T2A3C 000:163 JLINK_GetDLLVersion()  returns 61009 (0000ms, 0114ms total)
T2A3C 000:163 JLINK_GetFirmwareString(...) (0000ms, 0114ms total)
T2A3C 000:165 JLINK_GetDLLVersion()  returns 61009 (0000ms, 0114ms total)
T2A3C 000:165 JLINK_GetCompileDateTime() (0000ms, 0114ms total)
T2A3C 000:171 JLINK_GetFirmwareString(...) (0000ms, 0114ms total)
T2A3C 000:174 JLINK_GetHardwareVersion()  returns 0x13880 (0000ms, 0114ms total)
T2A3C 000:182 JLINK_TIF_Select(JLINKARM_TIF_SWD)  returns 0x00 (0000ms, 0114ms total)
T2A3C 000:182 JLINK_SetSpeed(5000) (0000ms, 0114ms total)
T2A3C 000:182 JLINK_GetId() >0x108 TIF>Found SWD-DP with ID 0x2BA01477 >0x0D TIF> >0x28 TIF> >0x0D TIF> >0x28 TIF> >0x0D TIF> >0x28 TIF> >0x0D TIF> >0x28 TIF> >0x0D TIF> >0x21 TIF> >0x0D TIF> >0x28 TIF> >0x0D TIF> >0x28 TIF> >0x0D TIF> >0x28 TIF> >0x0D TIF> >0x21 TIF> >0x0D TIF> >0x21 TIF> >0x0D TIF> >0x28 TIF> >0x0D TIF> >0x21 TIF> >0x0D TIF> >0x21 TIF> >0x0D TIF> >0x28 TIF> >0x0D TIF> >0x28 TIF> >0x0D TIF> >0x28 TIF> >0x0D TIF> >0x21 TIF> >0x0D TIF> >0x21 TIF> >0x0D TIF> >0x28 TIF> >0x0D TIF>
 >0x28 TIF> >0x0D TIF> >0x28 TIF> >0x0D TIF> >0x21 TIF> >0x0D TIF> >0x21 TIF> >0x0D TIF> >0x28 TIF> >0x0D TIF> >0x21 TIF> >0x0D TIF> >0x21 TIF> >0x0D TIF> >0x28 TIF> >0x0D TIF> >0x21 TIF> >0x0D TIF> >0x21 TIF> >0x0D TIF> >0x28 TIF> >0x0D TIF> >0x21 TIF> >0x0D TIF> >0x21 TIF> >0x108 TIF>Found SWD-DP with ID 0x2BA01477 >0x0D TIF> >0x28 TIF> >0x0D TIF> >0x28 TIF> >0x0D TIF> >0x28 TIF> >0x0D TIF> >0x28 TIF> >0x0D TIF> >0x21 TIF> >0x0D TIF> >0x28 TIF> >0x0D TIF> >0x28 TIF> >0x0D TIF> >0x21 TIF> >0x0D TIF>
 >0x21 TIF> >0x0D TIF> >0x21 TIF>AP-IDR: 0x24770011, Type: AHB-AP >0x0D TIF> >0x28 TIF> >0x0D TIF> >0x28 TIF> >0x0D TIF> >0x28 TIF> >0x0D TIF> >0x21 TIF> >0x0D TIF> >0x21 TIF> >0x0D TIF> >0x28 TIF> >0x0D TIF> >0x21 TIF> >0x0D TIF> >0x21 TIF>Found Cortex-M4 r0p1, Little endian. -- CPU_ReadMem(4 bytes @ 0xE000EDF0) -- CPU_WriteMem(4 bytes @ 0xE000EDF0) -- CPU_ReadMem(4 bytes @ 0xE0002000)FPUnit: 6 code (BP) slots and 2 literal slots -- CPU_ReadMem(4 bytes @ 0xE000EDFC) -- CPU_WriteMem(4 bytes @ 0xE000EDFC)
 -- CPU_ReadMem(4 bytes @ 0xE0001000) -- CPU_WriteMem(4 bytes @ 0xE0001000) -- CPU_ReadMem(4 bytes @ 0xE000ED88) -- CPU_WriteMem(4 bytes @ 0xE000ED88) -- CPU_ReadMem(4 bytes @ 0xE000ED88) -- CPU_WriteMem(4 bytes @ 0xE000ED88)CoreSight components:ROMTbl 0 @ E00FF000 -- CPU_ReadMem(16 bytes @ 0xE00FF000) -- CPU_ReadMem(16 bytes @ 0xE000EFF0) -- CPU_ReadMem(16 bytes @ 0xE000EFE0)ROMTbl 0 [0]: FFF0F000, CID: B105E00D, PID: 000BB00C SCS -- CPU_ReadMem(16 bytes @ 0xE0001FF0)
 -- CPU_ReadMem(16 bytes @ 0xE0001FE0)ROMTbl 0 [1]: FFF02000, CID: B105E00D, PID: 003BB002 DWT -- CPU_ReadMem(16 bytes @ 0xE0002FF0) -- CPU_ReadMem(16 bytes @ 0xE0002FE0)ROMTbl 0 [2]: FFF03000, CID: B105E00D, PID: 002BB003 FPB -- CPU_ReadMem(16 bytes @ 0xE0000FF0) -- CPU_ReadMem(16 bytes @ 0xE0000FE0)ROMTbl 0 [3]: FFF01000, CID: B105E00D, PID: 003BB001 ITM -- CPU_ReadMem(16 bytes @ 0xE00FF010) -- CPU_ReadMem(16 bytes @ 0xE0040FF0) -- CPU_ReadMem(16 bytes @ 0xE0040FE0)
ROMTbl 0 [4]: FFF41000, CID: B105900D, PID: 000BB9A1 TPIU -- CPU_ReadMem(16 bytes @ 0xE0041FF0) -- CPU_ReadMem(16 bytes @ 0xE0041FE0)ROMTbl 0 [5]: FFF42000, CID: B105900D, PID: 000BB925 ETM >0x0D TIF> >0x21 TIF>  returns 0x2BA01477 (0052ms, 0166ms total)
T2A3C 000:235 JLINK_GetDLLVersion()  returns 61009 (0000ms, 0166ms total)
T2A3C 000:235 JLINK_CORE_GetFound()  returns 0xE0000FF (0000ms, 0166ms total)
T2A3C 000:235 JLINK_GetDebugInfo(0x100) -- Value=0xE00FF000  returns 0x00 (0000ms, 0166ms total)
T2A3C 000:237 JLINK_GetDebugInfo(0x100) -- Value=0xE00FF000  returns 0x00 (0000ms, 0166ms total)
T2A3C 000:237 JLINK_GetDebugInfo(0x101) -- Value=0xE0041000  returns 0x00 (0000ms, 0166ms total)
T2A3C 000:237 JLINK_GetDebugInfo(0x102) -- Value=0x00000000  returns 0x00 (0000ms, 0166ms total)
T2A3C 000:237 JLINK_GetDebugInfo(0x103) -- Value=0xE0040000  returns 0x00 (0000ms, 0166ms total)
T2A3C 000:237 JLINK_GetDebugInfo(0x104) -- Value=0xE0000000  returns 0x00 (0000ms, 0166ms total)
T2A3C 000:237 JLINK_GetDebugInfo(0x105) -- Value=0xE0001000  returns 0x00 (0000ms, 0166ms total)
T2A3C 000:237 JLINK_GetDebugInfo(0x106) -- Value=0xE0002000  returns 0x00 (0000ms, 0166ms total)
T2A3C 000:237 JLINK_GetDebugInfo(0x107) -- Value=0xE000E000  returns 0x00 (0000ms, 0166ms total)
T2A3C 000:237 JLINK_GetDebugInfo(0x10C) -- Value=0xE000EDF0  returns 0x00 (0000ms, 0166ms total)
T2A3C 000:237 JLINK_ReadMemU32(0xE000EF40, 0x0001 Items, ...) -- CPU is running -- CPU_ReadMem(4 bytes @ 0xE000EF40) - Data: 21 00 11 10  returns 0x01 (0001ms, 0167ms total)
T2A3C 000:238 JLINK_ReadMemU32(0xE000EF44, 0x0001 Items, ...) -- CPU is running -- CPU_ReadMem(4 bytes @ 0xE000EF44) - Data: 11 00 00 11  returns 0x01 (0000ms, 0167ms total)
T2A3C 000:238 JLINK_ReadMemU32(0xE000ED00, 0x0001 Items, ...) -- CPU is running -- CPU_ReadMem(4 bytes @ 0xE000ED00) - Data: 41 C2 0F 41  returns 0x01 (0000ms, 0167ms total)
T2A3C 000:238 JLINK_SetResetType(JLINKARM_RESET_TYPE_NORMAL)  returns JLINKARM_RESET_TYPE_NORMAL (0000ms, 0167ms total)
T2A3C 000:238 JLINK_Reset() -- CPU is running -- CPU_WriteMem(4 bytes @ 0xE000EDF0) -- CPU is running -- CPU_WriteMem(4 bytes @ 0xE000EDFC) >0x35 TIF> -- CPU is running -- CPU_WriteMem(4 bytes @ 0xE000ED0C) -- CPU is running -- CPU_ReadMem(4 bytes @ 0xE000EDF0) -- CPU is running -- CPU_ReadMem(4 bytes @ 0xE000EDF0) -- CPU is running -- CPU_WriteMem(4 bytes @ 0xE000EDF0) -- CPU is running -- CPU_WriteMem(4 bytes @ 0xE000EDFC) -- CPU is running -- CPU_ReadMem(4 bytes @ 0xE000EDF0)
 -- CPU_WriteMem(4 bytes @ 0xE0002000) -- CPU_ReadMem(4 bytes @ 0xE000EDFC) -- CPU_ReadMem(4 bytes @ 0xE0001000) (0017ms, 0184ms total)
T2A3C 000:255 JLINK_Halt()  returns 0x00 (0000ms, 0184ms total)
T2A3C 000:255 JLINK_IsHalted()  returns TRUE (0000ms, 0184ms total)
T2A3C 000:255 JLINK_ReadMemU32(0xE000EDF0, 0x0001 Items, ...) -- CPU_ReadMem(4 bytes @ 0xE000EDF0) - Data: 03 00 03 00  returns 0x01 (0001ms, 0185ms total)
T2A3C 000:256 JLINK_WriteU32(0xE000EDF0, 0xA05F0003) -- CPU_WriteMem(4 bytes @ 0xE000EDF0)  returns 0x00 (0000ms, 0185ms total)
T2A3C 000:256 JLINK_WriteU32(0xE000EDFC, 0x01000000) -- CPU_WriteMem(4 bytes @ 0xE000EDFC)  returns 0x00 (0001ms, 0186ms total)
T2A3C 000:262 JLINK_GetHWStatus(...)  returns 0x00 (0001ms, 0187ms total)
T2A3C 000:267 JLINK_GetNumBPUnits(Type = 0xFFFFFF00)  returns 0x06 (0000ms, 0187ms total)
T2A3C 000:267 JLINK_GetNumBPUnits(Type = 0xF0)  returns 0x2000 (0000ms, 0187ms total)
T2A3C 000:267 JLINK_GetNumWPUnits()  returns 0x04 (0000ms, 0187ms total)
T2A3C 000:270 JLINK_GetSpeed()  returns 0xFA0 (0000ms, 0187ms total)
T2A3C 000:276 JLINK_ReadMemU32(0xE000E004, 0x0001 Items, ...) -- CPU_ReadMem(4 bytes @ 0xE000E004) - Data: 02 00 00 00  returns 0x01 (0000ms, 0187ms total)
T2A3C 000:276 JLINK_ReadMemU32(0xE000E004, 0x0001 Items, ...) -- CPU_ReadMem(4 bytes @ 0xE000E004) - Data: 02 00 00 00  returns 0x01 (0001ms, 0188ms total)
T2A3C 000:277 JLINK_WriteMem(0xE0001000, 0x001C Bytes, ...) - Data: 01 00 00 00 00 00 00 00 00 00 00 00 00 00 00 00 ... -- CPU_WriteMem(28 bytes @ 0xE0001000)  returns 0x1C (0001ms, 0189ms total)
T2A3C 000:278 JLINK_ReadMem (0xE0001000, 0x001C Bytes, ...) -- CPU_ReadMem(28 bytes @ 0xE0001000) - Data: 01 00 00 40 00 00 00 00 00 00 00 00 00 00 00 00 ...  returns 0x00 (0000ms, 0189ms total)
T2A3C 000:278 JLINK_Halt()  returns 0x00 (0000ms, 0189ms total)
T2A3C 000:278 JLINK_IsHalted()  returns TRUE (0000ms, 0189ms total)
T2A3C 000:280 JLINK_WriteMem(0x20000000, 0x0198 Bytes, ...) - Data: 00 BE 0A E0 0D 78 2D 06 68 40 08 24 40 00 00 D3 ... -- CPU_WriteMem(408 bytes @ 0x20000000)  returns 0x198 (0003ms, 0192ms total)
T2A3C 000:283 JLINK_WriteReg(R0, 0x08000000)  returns 0x00 (0000ms, 0192ms total)
T2A3C 000:283 JLINK_WriteReg(R1, 0x00B71B00)  returns 0x00 (0000ms, 0192ms total)
T2A3C 000:283 JLINK_WriteReg(R2, 0x00000001)  returns 0x00 (0000ms, 0192ms total)
T2A3C 000:283 JLINK_WriteReg(R3, 0x00000000)  returns 0x00 (0000ms, 0192ms total)
T2A3C 000:283 JLINK_WriteReg(R4, 0x00000000)  returns 0x00 (0000ms, 0192ms total)
T2A3C 000:283 JLINK_WriteReg(R5, 0x00000000)  returns 0x00 (0000ms, 0192ms total)
T2A3C 000:283 JLINK_WriteReg(R6, 0x00000000)  returns 0x00 (0000ms, 0192ms total)
T2A3C 000:283 JLINK_WriteReg(R7, 0x00000000)  returns 0x00 (0000ms, 0192ms total)
T2A3C 000:283 JLINK_WriteReg(R8, 0x00000000)  returns 0x00 (0000ms, 0192ms total)
T2A3C 000:283 JLINK_WriteReg(R9, 0x20000194)  returns 0x00 (0000ms, 0192ms total)
T2A3C 000:283 JLINK_WriteReg(R10, 0x00000000)  returns 0x00 (0000ms, 0192ms total)
T2A3C 000:283 JLINK_WriteReg(R11, 0x00000000)  returns 0x00 (0000ms, 0192ms total)
T2A3C 000:283 JLINK_WriteReg(R12, 0x00000000)  returns 0x00 (0000ms, 0192ms total)
T2A3C 000:283 JLINK_WriteReg(R13 (SP), 0x20001000)  returns 0x00 (0000ms, 0192ms total)
T2A3C 000:283 JLINK_WriteReg(R14, 0x20000001)  returns 0x00 (0000ms, 0192ms total)
T2A3C 000:283 JLINK_WriteReg(R15 (PC), 0x2000005E)  returns 0x00 (0000ms, 0192ms total)
T2A3C 000:283 JLINK_WriteReg(XPSR, 0x01000000)  returns 0x00 (0000ms, 0192ms total)
T2A3C 000:283 JLINK_WriteReg(MSP, 0x20001000)  returns 0x00 (0000ms, 0192ms total)
T2A3C 000:283 JLINK_WriteReg(PSP, 0x20001000)  returns 0x00 (0000ms, 0192ms total)
T2A3C 000:283 JLINK_WriteReg(CFBP, 0x00000000)  returns 0x00 (0000ms, 0192ms total)
T2A3C 000:283 JLINK_SetBPEx(Addr = 0x20000000, Type = 0xFFFFFFF2) -- CPU_ReadMem(2 bytes @ 0x20000000)  returns 0x00000001 (0000ms, 0192ms total)
T2A3C 000:283 JLINK_Go() -- CPU_WriteMem(2 bytes @ 0x20000000) -- CPU_ReadMem(4 bytes @ 0xE0001000) -- CPU_WriteMem(4 bytes @ 0xE0002008) -- CPU_WriteMem(4 bytes @ 0xE000200C) -- CPU_WriteMem(4 bytes @ 0xE0002010) -- CPU_WriteMem(4 bytes @ 0xE0002014) -- CPU_WriteMem(4 bytes @ 0xE0002018) -- CPU_WriteMem(4 bytes @ 0xE000201C) -- CPU_WriteMem(4 bytes @ 0xE0001004) (0006ms, 0198ms total)
T2A3C 000:289 JLINK_IsHalted() -- CPU_ReadMem(2 bytes @ 0x20000000)  returns TRUE (0002ms, 0200ms total)
T2A3C 000:291 JLINK_ReadReg(R15 (PC))  returns 0x20000000 (0000ms, 0198ms total)
T2A3C 000:291 JLINK_ClrBPEx(BPHandle = 0x00000001)  returns 0x00 (0000ms, 0198ms total)
T2A3C 000:291 JLINK_ReadReg(R0)  returns 0x00000000 (0000ms, 0198ms total)
T2A3C 000:293 JLINK_WriteReg(R0, 0x08000000)  returns 0x00 (0000ms, 0198ms total)
T2A3C 000:293 JLINK_WriteReg(R1, 0x00004000)  returns 0x00 (0000ms, 0198ms total)
T2A3C 000:293 JLINK_WriteReg(R2, 0x000000FF)  returns 0x00 (0000ms, 0198ms total)
T2A3C 000:293 JLINK_WriteReg(R3, 0x00000000)  returns 0x00 (0000ms, 0198ms total)
T2A3C 000:293 JLINK_WriteReg(R4, 0x00000000)  returns 0x00 (0000ms, 0198ms total)
T2A3C 000:293 JLINK_WriteReg(R5, 0x00000000)  returns 0x00 (0000ms, 0198ms total)
T2A3C 000:293 JLINK_WriteReg(R6, 0x00000000)  returns 0x00 (0000ms, 0198ms total)
T2A3C 000:293 JLINK_WriteReg(R7, 0x00000000)  returns 0x00 (0000ms, 0198ms total)
T2A3C 000:293 JLINK_WriteReg(R8, 0x00000000)  returns 0x00 (0000ms, 0198ms total)
T2A3C 000:293 JLINK_WriteReg(R9, 0x20000194)  returns 0x00 (0000ms, 0198ms total)
T2A3C 000:293 JLINK_WriteReg(R10, 0x00000000)  returns 0x00 (0000ms, 0198ms total)
T2A3C 000:293 JLINK_WriteReg(R11, 0x00000000)  returns 0x00 (0000ms, 0198ms total)
T2A3C 000:293 JLINK_WriteReg(R12, 0x00000000)  returns 0x00 (0000ms, 0198ms total)
T2A3C 000:293 JLINK_WriteReg(R13 (SP), 0x20001000)  returns 0x00 (0000ms, 0198ms total)
T2A3C 000:293 JLINK_WriteReg(R14, 0x20000001)  returns 0x00 (0000ms, 0198ms total)
T2A3C 000:293 JLINK_WriteReg(R15 (PC), 0x20000020)  returns 0x00 (0000ms, 0198ms total)
T2A3C 000:293 JLINK_WriteReg(XPSR, 0x01000000)  returns 0x00 (0000ms, 0198ms total)
T2A3C 000:293 JLINK_WriteReg(MSP, 0x20001000)  returns 0x00 (0000ms, 0198ms total)
T2A3C 000:293 JLINK_WriteReg(PSP, 0x20001000)  returns 0x00 (0000ms, 0198ms total)
T2A3C 000:293 JLINK_WriteReg(CFBP, 0x00000000)  returns 0x00 (0000ms, 0198ms total)
T2A3C 000:293 JLINK_SetBPEx(Addr = 0x20000000, Type = 0xFFFFFFF2)  returns 0x00000002 (0000ms, 0198ms total)
T2A3C 000:293 JLINK_Go() -- CPU_ReadMem(4 bytes @ 0xE0001000) (0001ms, 0199ms total)
T2A3C 000:294 JLINK_IsHalted() -- CPU_ReadMem(2 bytes @ 0x20000000)  returns TRUE (0003ms, 0202ms total)
T2A3C 000:297 JLINK_ReadReg(R15 (PC))  returns 0x20000000 (0000ms, 0199ms total)
T2A3C 000:297 JLINK_ClrBPEx(BPHandle = 0x00000002)  returns 0x00 (0000ms, 0199ms total)
T2A3C 000:297 JLINK_ReadReg(R0)  returns 0x00000001 (0000ms, 0199ms total)
T2A3C 000:297 JLINK_WriteReg(R0, 0x08000000)  returns 0x00 (0000ms, 0199ms total)
T2A3C 000:297 JLINK_WriteReg(R1, 0x00004000)  returns 0x00 (0000ms, 0199ms total)
T2A3C 000:297 JLINK_WriteReg(R2, 0x000000FF)  returns 0x00 (0000ms, 0199ms total)
T2A3C 000:297 JLINK_WriteReg(R3, 0x00000000)  returns 0x00 (0000ms, 0199ms total)
T2A3C 000:297 JLINK_WriteReg(R4, 0x00000000)  returns 0x00 (0000ms, 0199ms total)
T2A3C 000:297 JLINK_WriteReg(R5, 0x00000000)  returns 0x00 (0000ms, 0199ms total)
T2A3C 000:297 JLINK_WriteReg(R6, 0x00000000)  returns 0x00 (0000ms, 0199ms total)
T2A3C 000:297 JLINK_WriteReg(R7, 0x00000000)  returns 0x00 (0000ms, 0199ms total)
T2A3C 000:297 JLINK_WriteReg(R8, 0x00000000)  returns 0x00 (0000ms, 0199ms total)
T2A3C 000:297 JLINK_WriteReg(R9, 0x20000194)  returns 0x00 (0000ms, 0199ms total)
T2A3C 000:297 JLINK_WriteReg(R10, 0x00000000)  returns 0x00 (0000ms, 0199ms total)
T2A3C 000:297 JLINK_WriteReg(R11, 0x00000000)  returns 0x00 (0000ms, 0199ms total)
T2A3C 000:297 JLINK_WriteReg(R12, 0x00000000)  returns 0x00 (0000ms, 0199ms total)
T2A3C 000:297 JLINK_WriteReg(R13 (SP), 0x20001000)  returns 0x00 (0000ms, 0199ms total)
T2A3C 000:297 JLINK_WriteReg(R14, 0x20000001)  returns 0x00 (0000ms, 0199ms total)
T2A3C 000:297 JLINK_WriteReg(R15 (PC), 0x200000D4)  returns 0x00 (0000ms, 0199ms total)
T2A3C 000:297 JLINK_WriteReg(XPSR, 0x01000000)  returns 0x00 (0000ms, 0199ms total)
T2A3C 000:297 JLINK_WriteReg(MSP, 0x20001000)  returns 0x00 (0000ms, 0199ms total)
T2A3C 000:297 JLINK_WriteReg(PSP, 0x20001000)  returns 0x00 (0000ms, 0199ms total)
T2A3C 000:297 JLINK_WriteReg(CFBP, 0x00000000)  returns 0x00 (0000ms, 0199ms total)
T2A3C 000:297 JLINK_SetBPEx(Addr = 0x20000000, Type = 0xFFFFFFF2)  returns 0x00000003 (0000ms, 0199ms total)
T2A3C 000:297 JLINK_Go() -- CPU_ReadMem(4 bytes @ 0xE0001000) (0003ms, 0202ms total)
T2A3C 000:300 JLINK_IsHalted()  returns FALSE (0001ms, 0203ms total)
T2A3C 000:333 JLINK_IsHalted()  returns FALSE (0000ms, 0202ms total)
T2A3C 000:335 JLINK_IsHalted()  returns FALSE (0000ms, 0202ms total)
T2A3C 000:338 JLINK_IsHalted()  returns FALSE (0000ms, 0202ms total)
T2A3C 000:341 JLINK_IsHalted()  returns FALSE (0000ms, 0202ms total)
T2A3C 000:342 JLINK_IsHalted()  returns FALSE (0000ms, 0202ms total)
T2A3C 000:345 JLINK_IsHalted()  returns FALSE (0000ms, 0202ms total)
T2A3C 000:346 JLINK_IsHalted()  returns FALSE (0000ms, 0202ms total)
T2A3C 000:348 JLINK_IsHalted()  returns FALSE (0001ms, 0203ms total)
T2A3C 000:350 JLINK_IsHalted()  returns FALSE (0000ms, 0202ms total)
T2A3C 000:351 JLINK_IsHalted()  returns FALSE (0000ms, 0202ms total)
T2A3C 000:353 JLINK_IsHalted()  returns FALSE (0000ms, 0202ms total)
T2A3C 000:355 JLINK_IsHalted()  returns FALSE (0000ms, 0202ms total)
T2A3C 000:358 JLINK_IsHalted()  returns FALSE (0000ms, 0202ms total)
T2A3C 000:361 JLINK_IsHalted()  returns FALSE (0000ms, 0202ms total)
T2A3C 000:362 JLINK_IsHalted()  returns FALSE (0000ms, 0202ms total)
T2A3C 000:364 JLINK_IsHalted()  returns FALSE (0000ms, 0202ms total)
T2A3C 000:366 JLINK_IsHalted()  returns FALSE (0000ms, 0202ms total)
T2A3C 000:368 JLINK_IsHalted()  returns FALSE (0000ms, 0202ms total)
T2A3C 000:370 JLINK_IsHalted()  returns FALSE (0000ms, 0202ms total)
T2A3C 000:372 JLINK_IsHalted()  returns FALSE (0000ms, 0202ms total)
T2A3C 000:374 JLINK_IsHalted()  returns FALSE (0000ms, 0202ms total)
T2A3C 000:376 JLINK_IsHalted()  returns FALSE (0000ms, 0202ms total)
T2A3C 000:378 JLINK_IsHalted()  returns FALSE (0000ms, 0202ms total)
T2A3C 000:380 JLINK_IsHalted()  returns FALSE (0001ms, 0203ms total)
T2A3C 000:382 JLINK_IsHalted()  returns FALSE (0000ms, 0202ms total)
T2A3C 000:384 JLINK_IsHalted()  returns FALSE (0000ms, 0202ms total)
T2A3C 000:388 JLINK_IsHalted()  returns FALSE (0000ms, 0202ms total)
T2A3C 000:390 JLINK_IsHalted()  returns FALSE (0000ms, 0202ms total)
T2A3C 000:392 JLINK_IsHalted()  returns FALSE (0000ms, 0202ms total)
T2A3C 000:394 JLINK_IsHalted()  returns FALSE (0001ms, 0203ms total)
T2A3C 000:396 JLINK_IsHalted()  returns FALSE (0000ms, 0202ms total)
T2A3C 000:398 JLINK_IsHalted()  returns FALSE (0000ms, 0202ms total)
T2A3C 000:400 JLINK_IsHalted()  returns FALSE (0000ms, 0202ms total)
T2A3C 000:402 JLINK_IsHalted()  returns FALSE (0000ms, 0202ms total)
T2A3C 000:404 JLINK_IsHalted()  returns FALSE (0001ms, 0203ms total)
T2A3C 000:407 JLINK_IsHalted()  returns FALSE (0000ms, 0202ms total)
T2A3C 000:409 JLINK_IsHalted()  returns FALSE (0000ms, 0202ms total)
T2A3C 000:411 JLINK_IsHalted()  returns FALSE (0000ms, 0202ms total)
T2A3C 000:413 JLINK_IsHalted()  returns FALSE (0000ms, 0202ms total)
T2A3C 000:419 JLINK_IsHalted()  returns FALSE (0000ms, 0202ms total)
T2A3C 000:421 JLINK_IsHalted()  returns FALSE (0000ms, 0202ms total)
T2A3C 000:423 JLINK_IsHalted()  returns FALSE (0000ms, 0202ms total)
T2A3C 000:425 JLINK_IsHalted()  returns FALSE (0001ms, 0203ms total)
T2A3C 000:428 JLINK_IsHalted()  returns FALSE (0000ms, 0202ms total)
T2A3C 000:430 JLINK_IsHalted()  returns FALSE (0000ms, 0202ms total)
T2A3C 000:432 JLINK_IsHalted()  returns FALSE (0001ms, 0203ms total)
T2A3C 000:440 JLINK_IsHalted()  returns FALSE (0000ms, 0202ms total)
T2A3C 000:442 JLINK_IsHalted()  returns FALSE (0000ms, 0202ms total)
T2A3C 000:444 JLINK_IsHalted()  returns FALSE (0000ms, 0202ms total)
T2A3C 000:446 JLINK_IsHalted()  returns FALSE (0000ms, 0202ms total)
T2A3C 000:448 JLINK_IsHalted()  returns FALSE (0000ms, 0202ms total)
T2A3C 000:451 JLINK_IsHalted()  returns FALSE (0000ms, 0202ms total)
T2A3C 000:453 JLINK_IsHalted()  returns FALSE (0000ms, 0202ms total)
T2A3C 000:455 JLINK_IsHalted()  returns FALSE (0000ms, 0202ms total)
T2A3C 000:457 JLINK_IsHalted()  returns FALSE (0000ms, 0202ms total)
T2A3C 000:459 JLINK_IsHalted()  returns FALSE (0001ms, 0203ms total)
T2A3C 000:462 JLINK_IsHalted()  returns FALSE (0000ms, 0202ms total)
T2A3C 000:464 JLINK_IsHalted()  returns FALSE (0001ms, 0203ms total)
T2A3C 000:467 JLINK_IsHalted()  returns FALSE (0000ms, 0202ms total)
T2A3C 000:469 JLINK_IsHalted()  returns FALSE (0000ms, 0202ms total)
T2A3C 000:471 JLINK_IsHalted()  returns FALSE (0000ms, 0202ms total)
T2A3C 000:473 JLINK_IsHalted()  returns FALSE (0000ms, 0202ms total)
T2A3C 000:475 JLINK_IsHalted()  returns FALSE (0000ms, 0202ms total)
T2A3C 000:477 JLINK_IsHalted()  returns FALSE (0000ms, 0202ms total)
T2A3C 000:479 JLINK_IsHalted()  returns FALSE (0001ms, 0203ms total)
T2A3C 000:482 JLINK_IsHalted()  returns FALSE (0000ms, 0202ms total)
T2A3C 000:484 JLINK_IsHalted()  returns FALSE (0000ms, 0202ms total)
T2A3C 000:487 JLINK_IsHalted()  returns FALSE (0000ms, 0202ms total)
T2A3C 000:489 JLINK_IsHalted()  returns FALSE (0000ms, 0202ms total)
T2A3C 000:491 JLINK_IsHalted()  returns FALSE (0000ms, 0202ms total)
T2A3C 000:499 JLINK_IsHalted()  returns FALSE (0000ms, 0202ms total)
T2A3C 000:501 JLINK_IsHalted()  returns FALSE (0000ms, 0202ms total)
T2A3C 000:503 JLINK_IsHalted()  returns FALSE (0001ms, 0203ms total)
T2A3C 000:505 JLINK_IsHalted()  returns FALSE (0000ms, 0202ms total)
T2A3C 000:507 JLINK_IsHalted()  returns FALSE (0000ms, 0202ms total)
T2A3C 000:509 JLINK_IsHalted()  returns FALSE (0001ms, 0203ms total)
T2A3C 000:512 JLINK_IsHalted()  returns FALSE (0000ms, 0202ms total)
T2A3C 000:514 JLINK_IsHalted()  returns FALSE (0000ms, 0202ms total)
T2A3C 000:517 JLINK_IsHalted()  returns FALSE (0000ms, 0202ms total)
T2A3C 000:519 JLINK_IsHalted()  returns FALSE (0000ms, 0202ms total)
T2A3C 000:521 JLINK_IsHalted()  returns FALSE (0000ms, 0202ms total)
T2A3C 000:523 JLINK_IsHalted()  returns FALSE (0000ms, 0202ms total)
T2A3C 000:536 JLINK_IsHalted()  returns FALSE (0000ms, 0202ms total)
T2A3C 000:538 JLINK_IsHalted()  returns FALSE (0001ms, 0203ms total)
T2A3C 000:541 JLINK_IsHalted()  returns FALSE (0000ms, 0202ms total)
T2A3C 000:543 JLINK_IsHalted()  returns FALSE (0000ms, 0202ms total)
T2A3C 000:545 JLINK_IsHalted()  returns FALSE (0000ms, 0202ms total)
T2A3C 000:548 JLINK_IsHalted()  returns FALSE (0000ms, 0202ms total)
T2A3C 000:550 JLINK_IsHalted()  returns FALSE (0000ms, 0202ms total)
T2A3C 000:552 JLINK_IsHalted()  returns FALSE (0001ms, 0203ms total)
T2A3C 000:555 JLINK_IsHalted()  returns FALSE (0000ms, 0202ms total)
T2A3C 000:557 JLINK_IsHalted()  returns FALSE (0000ms, 0202ms total)
T2A3C 000:559 JLINK_IsHalted()  returns FALSE (0000ms, 0202ms total)
T2A3C 000:565 JLINK_IsHalted()  returns FALSE (0000ms, 0202ms total)
T2A3C 000:567 JLINK_IsHalted()  returns FALSE (0000ms, 0202ms total)
T2A3C 000:569 JLINK_IsHalted()  returns FALSE (0000ms, 0202ms total)
T2A3C 000:571 JLINK_IsHalted()  returns FALSE (0000ms, 0202ms total)
T2A3C 000:572 JLINK_IsHalted()  returns FALSE (0001ms, 0203ms total)
T2A3C 000:574 JLINK_IsHalted()  returns FALSE (0000ms, 0202ms total)
T2A3C 000:576 JLINK_IsHalted()  returns FALSE (0000ms, 0202ms total)
T2A3C 000:578 JLINK_IsHalted()  returns FALSE (0000ms, 0202ms total)
T2A3C 000:580 JLINK_IsHalted()  returns FALSE (0001ms, 0203ms total)
T2A3C 000:582 JLINK_IsHalted()  returns FALSE (0000ms, 0202ms total)
T2A3C 000:583 JLINK_IsHalted()  returns FALSE (0001ms, 0203ms total)
T2A3C 000:585 JLINK_IsHalted()  returns FALSE (0000ms, 0202ms total)
T2A3C 000:587 JLINK_IsHalted()  returns FALSE (0000ms, 0202ms total)
T2A3C 000:589 JLINK_IsHalted()  returns FALSE (0000ms, 0202ms total)
T2A3C 000:591 JLINK_IsHalted()  returns FALSE (0001ms, 0203ms total)
T2A3C 000:593 JLINK_IsHalted()  returns FALSE (0000ms, 0202ms total)
T2A3C 000:595 JLINK_IsHalted()  returns FALSE (0000ms, 0202ms total)
T2A3C 000:597 JLINK_IsHalted()  returns FALSE (0001ms, 0203ms total)
T2A3C 000:600 JLINK_IsHalted()  returns FALSE (0000ms, 0202ms total)
T2A3C 000:601 JLINK_IsHalted()  returns FALSE (0000ms, 0202ms total)
T2A3C 000:605 JLINK_IsHalted()  returns FALSE (0000ms, 0202ms total)
T2A3C 000:607 JLINK_IsHalted()  returns FALSE (0000ms, 0202ms total)
T2A3C 000:609 JLINK_IsHalted()  returns FALSE (0000ms, 0202ms total)
T2A3C 000:611 JLINK_IsHalted()  returns FALSE (0001ms, 0203ms total)
T2A3C 000:613 JLINK_IsHalted()  returns FALSE (0001ms, 0203ms total)
T2A3C 000:615 JLINK_IsHalted()  returns FALSE (0000ms, 0202ms total)
T2A3C 000:617 JLINK_IsHalted()  returns FALSE (0000ms, 0202ms total)
T2A3C 000:619 JLINK_IsHalted()  returns FALSE (0000ms, 0202ms total)
T2A3C 000:621 JLINK_IsHalted()  returns FALSE (0000ms, 0202ms total)
T2A3C 000:623 JLINK_IsHalted()  returns FALSE (0000ms, 0202ms total)
T2A3C 000:625 JLINK_IsHalted()  returns FALSE (0001ms, 0203ms total)
T2A3C 000:627 JLINK_IsHalted()  returns FALSE (0000ms, 0202ms total)
T2A3C 000:629 JLINK_IsHalted()  returns FALSE (0000ms, 0202ms total)
T2A3C 000:630 JLINK_IsHalted()  returns FALSE (0000ms, 0202ms total)
T2A3C 000:632 JLINK_IsHalted()  returns FALSE (0001ms, 0203ms total)
T2A3C 000:636 JLINK_IsHalted()  returns FALSE (0000ms, 0202ms total)
T2A3C 000:638 JLINK_IsHalted()  returns FALSE (0000ms, 0202ms total)
T2A3C 000:640 JLINK_IsHalted()  returns FALSE (0000ms, 0202ms total)
T2A3C 000:642 JLINK_IsHalted()  returns FALSE (0000ms, 0202ms total)
T2A3C 000:645 JLINK_IsHalted()  returns FALSE (0000ms, 0202ms total)
T2A3C 000:647 JLINK_IsHalted()  returns FALSE (0000ms, 0202ms total)
T2A3C 000:649 JLINK_IsHalted()  returns FALSE (0001ms, 0203ms total)
T2A3C 000:652 JLINK_IsHalted()  returns FALSE (0000ms, 0202ms total)
T2A3C 000:654 JLINK_IsHalted()  returns FALSE (0000ms, 0202ms total)
T2A3C 000:656 JLINK_IsHalted() -- CPU_ReadMem(2 bytes @ 0x20000000)  returns TRUE (0003ms, 0205ms total)
T2A3C 000:659 JLINK_ReadReg(R15 (PC))  returns 0x20000000 (0000ms, 0202ms total)
T2A3C 000:659 JLINK_ClrBPEx(BPHandle = 0x00000003)  returns 0x00 (0000ms, 0202ms total)
T2A3C 000:659 JLINK_ReadReg(R0)  returns 0x00000000 (0000ms, 0202ms total)
T2A3C 000:660 JLINK_WriteReg(R0, 0x00000001)  returns 0x00 (0000ms, 0202ms total)
T2A3C 000:660 JLINK_WriteReg(R1, 0x00004000)  returns 0x00 (0001ms, 0203ms total)
T2A3C 000:661 JLINK_WriteReg(R2, 0x000000FF)  returns 0x00 (0000ms, 0203ms total)
T2A3C 000:661 JLINK_WriteReg(R3, 0x00000000)  returns 0x00 (0000ms, 0203ms total)
T2A3C 000:661 JLINK_WriteReg(R4, 0x00000000)  returns 0x00 (0000ms, 0203ms total)
T2A3C 000:661 JLINK_WriteReg(R5, 0x00000000)  returns 0x00 (0000ms, 0203ms total)
T2A3C 000:661 JLINK_WriteReg(R6, 0x00000000)  returns 0x00 (0000ms, 0203ms total)
T2A3C 000:661 JLINK_WriteReg(R7, 0x00000000)  returns 0x00 (0000ms, 0203ms total)
T2A3C 000:661 JLINK_WriteReg(R8, 0x00000000)  returns 0x00 (0000ms, 0203ms total)
T2A3C 000:661 JLINK_WriteReg(R9, 0x20000194)  returns 0x00 (0000ms, 0203ms total)
T2A3C 000:661 JLINK_WriteReg(R10, 0x00000000)  returns 0x00 (0000ms, 0203ms total)
T2A3C 000:661 JLINK_WriteReg(R11, 0x00000000)  returns 0x00 (0000ms, 0203ms total)
T2A3C 000:661 JLINK_WriteReg(R12, 0x00000000)  returns 0x00 (0000ms, 0203ms total)
T2A3C 000:661 JLINK_WriteReg(R13 (SP), 0x20001000)  returns 0x00 (0000ms, 0203ms total)
T2A3C 000:661 JLINK_WriteReg(R14, 0x20000001)  returns 0x00 (0000ms, 0203ms total)
T2A3C 000:661 JLINK_WriteReg(R15 (PC), 0x2000008C)  returns 0x00 (0000ms, 0203ms total)
T2A3C 000:661 JLINK_WriteReg(XPSR, 0x01000000)  returns 0x00 (0000ms, 0203ms total)
T2A3C 000:661 JLINK_WriteReg(MSP, 0x20001000)  returns 0x00 (0000ms, 0203ms total)
T2A3C 000:661 JLINK_WriteReg(PSP, 0x20001000)  returns 0x00 (0000ms, 0203ms total)
T2A3C 000:662 JLINK_WriteReg(CFBP, 0x00000000)  returns 0x00 (0000ms, 0204ms total)
T2A3C 000:662 JLINK_SetBPEx(Addr = 0x20000000, Type = 0xFFFFFFF2)  returns 0x00000004 (0000ms, 0204ms total)
T2A3C 000:662 JLINK_Go() -- CPU_ReadMem(4 bytes @ 0xE0001000) (0002ms, 0206ms total)
T2A3C 000:664 JLINK_IsHalted() -- CPU_ReadMem(2 bytes @ 0x20000000)  returns TRUE (0002ms, 0208ms total)
T2A3C 000:666 JLINK_ReadReg(R15 (PC))  returns 0x20000000 (0000ms, 0206ms total)
T2A3C 000:666 JLINK_ClrBPEx(BPHandle = 0x00000004)  returns 0x00 (0000ms, 0206ms total)
T2A3C 000:666 JLINK_ReadReg(R0)  returns 0x00000000 (0000ms, 0206ms total)
T2A3C 000:722 JLINK_WriteMem(0x20000000, 0x0198 Bytes, ...) - Data: 00 BE 0A E0 0D 78 2D 06 68 40 08 24 40 00 00 D3 ... -- CPU_WriteMem(408 bytes @ 0x20000000)  returns 0x198 (0003ms, 0209ms total)
T2A3C 000:725 JLINK_WriteReg(R0, 0x08000000)  returns 0x00 (0000ms, 0209ms total)
T2A3C 000:725 JLINK_WriteReg(R1, 0x00B71B00)  returns 0x00 (0000ms, 0209ms total)
T2A3C 000:725 JLINK_WriteReg(R2, 0x00000002)  returns 0x00 (0000ms, 0209ms total)
T2A3C 000:725 JLINK_WriteReg(R3, 0x00000000)  returns 0x00 (0000ms, 0209ms total)
T2A3C 000:725 JLINK_WriteReg(R4, 0x00000000)  returns 0x00 (0000ms, 0209ms total)
T2A3C 000:725 JLINK_WriteReg(R5, 0x00000000)  returns 0x00 (0000ms, 0209ms total)
T2A3C 000:725 JLINK_WriteReg(R6, 0x00000000)  returns 0x00 (0000ms, 0209ms total)
T2A3C 000:725 JLINK_WriteReg(R7, 0x00000000)  returns 0x00 (0000ms, 0209ms total)
T2A3C 000:725 JLINK_WriteReg(R8, 0x00000000)  returns 0x00 (0000ms, 0209ms total)
T2A3C 000:725 JLINK_WriteReg(R9, 0x20000194)  returns 0x00 (0000ms, 0209ms total)
T2A3C 000:725 JLINK_WriteReg(R10, 0x00000000)  returns 0x00 (0000ms, 0209ms total)
T2A3C 000:725 JLINK_WriteReg(R11, 0x00000000)  returns 0x00 (0000ms, 0209ms total)
T2A3C 000:725 JLINK_WriteReg(R12, 0x00000000)  returns 0x00 (0000ms, 0209ms total)
T2A3C 000:725 JLINK_WriteReg(R13 (SP), 0x20001000)  returns 0x00 (0000ms, 0209ms total)
T2A3C 000:725 JLINK_WriteReg(R14, 0x20000001)  returns 0x00 (0000ms, 0209ms total)
T2A3C 000:725 JLINK_WriteReg(R15 (PC), 0x2000005E)  returns 0x00 (0000ms, 0209ms total)
T2A3C 000:725 JLINK_WriteReg(XPSR, 0x01000000)  returns 0x00 (0000ms, 0209ms total)
T2A3C 000:725 JLINK_WriteReg(MSP, 0x20001000)  returns 0x00 (0000ms, 0209ms total)
T2A3C 000:725 JLINK_WriteReg(PSP, 0x20001000)  returns 0x00 (0000ms, 0209ms total)
T2A3C 000:725 JLINK_WriteReg(CFBP, 0x00000000)  returns 0x00 (0000ms, 0209ms total)
T2A3C 000:725 JLINK_SetBPEx(Addr = 0x20000000, Type = 0xFFFFFFF2) -- CPU_ReadMem(2 bytes @ 0x20000000)  returns 0x00000005 (0002ms, 0211ms total)
T2A3C 000:727 JLINK_Go() -- CPU_WriteMem(2 bytes @ 0x20000000) -- CPU_ReadMem(4 bytes @ 0xE0001000) (0002ms, 0213ms total)
T2A3C 000:729 JLINK_IsHalted() -- CPU_ReadMem(2 bytes @ 0x20000000)  returns TRUE (0003ms, 0216ms total)
T2A3C 000:732 JLINK_ReadReg(R15 (PC))  returns 0x20000000 (0000ms, 0213ms total)
T2A3C 000:732 JLINK_ClrBPEx(BPHandle = 0x00000005)  returns 0x00 (0000ms, 0213ms total)
T2A3C 000:732 JLINK_ReadReg(R0)  returns 0x00000000 (0000ms, 0213ms total)
T2A3C 000:732 JLINK_WriteMem(0x20000198, 0x0400 Bytes, ...) - Data: 58 07 00 20 FD 04 00 08 D1 02 00 08 D3 02 00 08 ... -- CPU_WriteMem(1024 bytes @ 0x20000198)  returns 0x400 (0007ms, 0220ms total)
T2A3C 000:739 JLINK_WriteReg(R0, 0x08000000)  returns 0x00 (0000ms, 0220ms total)
T2A3C 000:739 JLINK_WriteReg(R1, 0x00000400)  returns 0x00 (0000ms, 0220ms total)
T2A3C 000:739 JLINK_WriteReg(R2, 0x20000198)  returns 0x00 (0000ms, 0220ms total)
T2A3C 000:739 JLINK_WriteReg(R3, 0x00000000)  returns 0x00 (0000ms, 0220ms total)
T2A3C 000:739 JLINK_WriteReg(R4, 0x00000000)  returns 0x00 (0000ms, 0220ms total)
T2A3C 000:739 JLINK_WriteReg(R5, 0x00000000)  returns 0x00 (0000ms, 0220ms total)
T2A3C 000:739 JLINK_WriteReg(R6, 0x00000000)  returns 0x00 (0000ms, 0220ms total)
T2A3C 000:739 JLINK_WriteReg(R7, 0x00000000)  returns 0x00 (0000ms, 0220ms total)
T2A3C 000:739 JLINK_WriteReg(R8, 0x00000000)  returns 0x00 (0000ms, 0220ms total)
T2A3C 000:739 JLINK_WriteReg(R9, 0x20000194)  returns 0x00 (0000ms, 0220ms total)
T2A3C 000:739 JLINK_WriteReg(R10, 0x00000000)  returns 0x00 (0000ms, 0220ms total)
T2A3C 000:739 JLINK_WriteReg(R11, 0x00000000)  returns 0x00 (0000ms, 0220ms total)
T2A3C 000:739 JLINK_WriteReg(R12, 0x00000000)  returns 0x00 (0000ms, 0220ms total)
T2A3C 000:739 JLINK_WriteReg(R13 (SP), 0x20001000)  returns 0x00 (0000ms, 0220ms total)
T2A3C 000:739 JLINK_WriteReg(R14, 0x20000001)  returns 0x00 (0000ms, 0220ms total)
T2A3C 000:739 JLINK_WriteReg(R15 (PC), 0x20000120)  returns 0x00 (0000ms, 0220ms total)
T2A3C 000:739 JLINK_WriteReg(XPSR, 0x01000000)  returns 0x00 (0000ms, 0220ms total)
T2A3C 000:739 JLINK_WriteReg(MSP, 0x20001000)  returns 0x00 (0000ms, 0220ms total)
T2A3C 000:739 JLINK_WriteReg(PSP, 0x20001000)  returns 0x00 (0000ms, 0220ms total)
T2A3C 000:739 JLINK_WriteReg(CFBP, 0x00000000)  returns 0x00 (0000ms, 0220ms total)
T2A3C 000:739 JLINK_SetBPEx(Addr = 0x20000000, Type = 0xFFFFFFF2)  returns 0x00000006 (0000ms, 0220ms total)
T2A3C 000:739 JLINK_Go() -- CPU_ReadMem(4 bytes @ 0xE0001000) (0002ms, 0222ms total)
T2A3C 000:741 JLINK_IsHalted()  returns FALSE (0000ms, 0222ms total)
T2A3C 000:745 JLINK_IsHalted() -- CPU_ReadMem(2 bytes @ 0x20000000)  returns TRUE (0003ms, 0225ms total)
T2A3C 000:748 JLINK_ReadReg(R15 (PC))  returns 0x20000000 (0000ms, 0222ms total)
T2A3C 000:748 JLINK_ClrBPEx(BPHandle = 0x00000006)  returns 0x00 (0000ms, 0222ms total)
T2A3C 000:748 JLINK_ReadReg(R0)  returns 0x00000000 (0000ms, 0222ms total)
T2A3C 000:749 JLINK_WriteMem(0x20000198, 0x0400 Bytes, ...) - Data: 20 F4 80 20 09 1F 08 60 00 20 31 49 0C 31 08 60 ... -- CPU_WriteMem(1024 bytes @ 0x20000198)  returns 0x400 (0006ms, 0228ms total)
T2A3C 000:755 JLINK_WriteReg(R0, 0x08000400)  returns 0x00 (0000ms, 0228ms total)
T2A3C 000:755 JLINK_WriteReg(R1, 0x00000400)  returns 0x00 (0000ms, 0228ms total)
T2A3C 000:755 JLINK_WriteReg(R2, 0x20000198)  returns 0x00 (0000ms, 0228ms total)
T2A3C 000:755 JLINK_WriteReg(R3, 0x00000000)  returns 0x00 (0000ms, 0228ms total)
T2A3C 000:755 JLINK_WriteReg(R4, 0x00000000)  returns 0x00 (0000ms, 0228ms total)
T2A3C 000:755 JLINK_WriteReg(R5, 0x00000000)  returns 0x00 (0000ms, 0228ms total)
T2A3C 000:755 JLINK_WriteReg(R6, 0x00000000)  returns 0x00 (0000ms, 0228ms total)
T2A3C 000:755 JLINK_WriteReg(R7, 0x00000000)  returns 0x00 (0000ms, 0228ms total)
T2A3C 000:755 JLINK_WriteReg(R8, 0x00000000)  returns 0x00 (0000ms, 0228ms total)
T2A3C 000:755 JLINK_WriteReg(R9, 0x20000194)  returns 0x00 (0000ms, 0228ms total)
T2A3C 000:755 JLINK_WriteReg(R10, 0x00000000)  returns 0x00 (0000ms, 0228ms total)
T2A3C 000:755 JLINK_WriteReg(R11, 0x00000000)  returns 0x00 (0000ms, 0228ms total)
T2A3C 000:755 JLINK_WriteReg(R12, 0x00000000)  returns 0x00 (0000ms, 0228ms total)
T2A3C 000:755 JLINK_WriteReg(R13 (SP), 0x20001000)  returns 0x00 (0000ms, 0228ms total)
T2A3C 000:755 JLINK_WriteReg(R14, 0x20000001)  returns 0x00 (0000ms, 0228ms total)
T2A3C 000:755 JLINK_WriteReg(R15 (PC), 0x20000120)  returns 0x00 (0000ms, 0228ms total)
T2A3C 000:755 JLINK_WriteReg(XPSR, 0x01000000)  returns 0x00 (0000ms, 0228ms total)
T2A3C 000:755 JLINK_WriteReg(MSP, 0x20001000)  returns 0x00 (0000ms, 0228ms total)
T2A3C 000:755 JLINK_WriteReg(PSP, 0x20001000)  returns 0x00 (0000ms, 0228ms total)
T2A3C 000:755 JLINK_WriteReg(CFBP, 0x00000000)  returns 0x00 (0000ms, 0228ms total)
T2A3C 000:755 JLINK_SetBPEx(Addr = 0x20000000, Type = 0xFFFFFFF2)  returns 0x00000007 (0000ms, 0228ms total)
T2A3C 000:755 JLINK_Go() -- CPU_ReadMem(4 bytes @ 0xE0001000) (0003ms, 0231ms total)
T2A3C 000:758 JLINK_IsHalted()  returns FALSE (0000ms, 0231ms total)
T2A3C 000:760 JLINK_IsHalted()  returns FALSE (0000ms, 0231ms total)
T2A3C 000:762 JLINK_IsHalted() -- CPU_ReadMem(2 bytes @ 0x20000000)  returns TRUE (0002ms, 0233ms total)
T2A3C 000:764 JLINK_ReadReg(R15 (PC))  returns 0x20000000 (0000ms, 0231ms total)
T2A3C 000:764 JLINK_ClrBPEx(BPHandle = 0x00000007)  returns 0x00 (0000ms, 0231ms total)
T2A3C 000:764 JLINK_ReadReg(R0)  returns 0x00000000 (0000ms, 0231ms total)
T2A3C 000:765 JLINK_WriteMem(0x20000198, 0x0400 Bytes, ...) - Data: 08 69 80 B2 70 47 02 46 00 20 53 69 0B 40 0B B1 ... -- CPU_WriteMem(1024 bytes @ 0x20000198)  returns 0x400 (0007ms, 0238ms total)
T2A3C 000:772 JLINK_WriteReg(R0, 0x08000800)  returns 0x00 (0000ms, 0238ms total)
T2A3C 000:772 JLINK_WriteReg(R1, 0x00000400)  returns 0x00 (0000ms, 0238ms total)
T2A3C 000:772 JLINK_WriteReg(R2, 0x20000198)  returns 0x00 (0000ms, 0238ms total)
T2A3C 000:772 JLINK_WriteReg(R3, 0x00000000)  returns 0x00 (0000ms, 0238ms total)
T2A3C 000:772 JLINK_WriteReg(R4, 0x00000000)  returns 0x00 (0000ms, 0238ms total)
T2A3C 000:772 JLINK_WriteReg(R5, 0x00000000)  returns 0x00 (0000ms, 0238ms total)
T2A3C 000:772 JLINK_WriteReg(R6, 0x00000000)  returns 0x00 (0000ms, 0238ms total)
T2A3C 000:772 JLINK_WriteReg(R7, 0x00000000)  returns 0x00 (0000ms, 0238ms total)
T2A3C 000:772 JLINK_WriteReg(R8, 0x00000000)  returns 0x00 (0000ms, 0238ms total)
T2A3C 000:772 JLINK_WriteReg(R9, 0x20000194)  returns 0x00 (0000ms, 0238ms total)
T2A3C 000:772 JLINK_WriteReg(R10, 0x00000000)  returns 0x00 (0000ms, 0238ms total)
T2A3C 000:772 JLINK_WriteReg(R11, 0x00000000)  returns 0x00 (0000ms, 0238ms total)
T2A3C 000:772 JLINK_WriteReg(R12, 0x00000000)  returns 0x00 (0000ms, 0238ms total)
T2A3C 000:772 JLINK_WriteReg(R13 (SP), 0x20001000)  returns 0x00 (0000ms, 0238ms total)
T2A3C 000:772 JLINK_WriteReg(R14, 0x20000001)  returns 0x00 (0000ms, 0238ms total)
T2A3C 000:772 JLINK_WriteReg(R15 (PC), 0x20000120)  returns 0x00 (0000ms, 0238ms total)
T2A3C 000:772 JLINK_WriteReg(XPSR, 0x01000000)  returns 0x00 (0000ms, 0238ms total)
T2A3C 000:772 JLINK_WriteReg(MSP, 0x20001000)  returns 0x00 (0000ms, 0238ms total)
T2A3C 000:772 JLINK_WriteReg(PSP, 0x20001000)  returns 0x00 (0000ms, 0238ms total)
T2A3C 000:772 JLINK_WriteReg(CFBP, 0x00000000)  returns 0x00 (0000ms, 0238ms total)
T2A3C 000:772 JLINK_SetBPEx(Addr = 0x20000000, Type = 0xFFFFFFF2)  returns 0x00000008 (0000ms, 0238ms total)
T2A3C 000:772 JLINK_Go() -- CPU_ReadMem(4 bytes @ 0xE0001000) (0003ms, 0241ms total)
T2A3C 000:775 JLINK_IsHalted()  returns FALSE (0000ms, 0241ms total)
T2A3C 000:777 JLINK_IsHalted()  returns FALSE (0000ms, 0241ms total)
T2A3C 000:779 JLINK_IsHalted() -- CPU_ReadMem(2 bytes @ 0x20000000)  returns TRUE (0002ms, 0243ms total)
T2A3C 000:781 JLINK_ReadReg(R15 (PC))  returns 0x20000000 (0000ms, 0241ms total)
T2A3C 000:781 JLINK_ClrBPEx(BPHandle = 0x00000008)  returns 0x00 (0000ms, 0241ms total)
T2A3C 000:781 JLINK_ReadReg(R0)  returns 0x00000000 (0000ms, 0241ms total)
T2A3C 000:783 JLINK_WriteMem(0x20000198, 0x0400 Bytes, ...) - Data: 8C 32 10 60 70 47 01 46 00 20 23 4A 8C 32 10 68 ... -- CPU_WriteMem(1024 bytes @ 0x20000198)  returns 0x400 (0007ms, 0248ms total)
T2A3C 000:790 JLINK_WriteReg(R0, 0x08000C00)  returns 0x00 (0000ms, 0248ms total)
T2A3C 000:790 JLINK_WriteReg(R1, 0x00000400)  returns 0x00 (0000ms, 0248ms total)
T2A3C 000:790 JLINK_WriteReg(R2, 0x20000198)  returns 0x00 (0000ms, 0248ms total)
T2A3C 000:790 JLINK_WriteReg(R3, 0x00000000)  returns 0x00 (0000ms, 0248ms total)
T2A3C 000:790 JLINK_WriteReg(R4, 0x00000000)  returns 0x00 (0000ms, 0248ms total)
T2A3C 000:790 JLINK_WriteReg(R5, 0x00000000)  returns 0x00 (0000ms, 0248ms total)
T2A3C 000:790 JLINK_WriteReg(R6, 0x00000000)  returns 0x00 (0000ms, 0248ms total)
T2A3C 000:790 JLINK_WriteReg(R7, 0x00000000)  returns 0x00 (0000ms, 0248ms total)
T2A3C 000:790 JLINK_WriteReg(R8, 0x00000000)  returns 0x00 (0000ms, 0248ms total)
T2A3C 000:790 JLINK_WriteReg(R9, 0x20000194)  returns 0x00 (0000ms, 0248ms total)
T2A3C 000:790 JLINK_WriteReg(R10, 0x00000000)  returns 0x00 (0000ms, 0248ms total)
T2A3C 000:790 JLINK_WriteReg(R11, 0x00000000)  returns 0x00 (0000ms, 0248ms total)
T2A3C 000:790 JLINK_WriteReg(R12, 0x00000000)  returns 0x00 (0000ms, 0248ms total)
T2A3C 000:790 JLINK_WriteReg(R13 (SP), 0x20001000)  returns 0x00 (0000ms, 0248ms total)
T2A3C 000:790 JLINK_WriteReg(R14, 0x20000001)  returns 0x00 (0000ms, 0248ms total)
T2A3C 000:790 JLINK_WriteReg(R15 (PC), 0x20000120)  returns 0x00 (0000ms, 0248ms total)
T2A3C 000:790 JLINK_WriteReg(XPSR, 0x01000000)  returns 0x00 (0000ms, 0248ms total)
T2A3C 000:790 JLINK_WriteReg(MSP, 0x20001000)  returns 0x00 (0000ms, 0248ms total)
T2A3C 000:790 JLINK_WriteReg(PSP, 0x20001000)  returns 0x00 (0000ms, 0248ms total)
T2A3C 000:790 JLINK_WriteReg(CFBP, 0x00000000)  returns 0x00 (0000ms, 0248ms total)
T2A3C 000:790 JLINK_SetBPEx(Addr = 0x20000000, Type = 0xFFFFFFF2)  returns 0x00000009 (0000ms, 0248ms total)
T2A3C 000:790 JLINK_Go() -- CPU_ReadMem(4 bytes @ 0xE0001000) (0002ms, 0250ms total)
T2A3C 000:792 JLINK_IsHalted()  returns FALSE (0000ms, 0250ms total)
T2A3C 000:794 JLINK_IsHalted()  returns FALSE (0001ms, 0251ms total)
T2A3C 000:797 JLINK_IsHalted() -- CPU_ReadMem(2 bytes @ 0x20000000)  returns TRUE (0003ms, 0253ms total)
T2A3C 000:800 JLINK_ReadReg(R15 (PC))  returns 0x20000000 (0000ms, 0250ms total)
T2A3C 000:800 JLINK_ClrBPEx(BPHandle = 0x00000009)  returns 0x00 (0000ms, 0250ms total)
T2A3C 000:800 JLINK_ReadReg(R0)  returns 0x00000000 (0000ms, 0250ms total)
T2A3C 000:800 JLINK_WriteMem(0x20000198, 0x0400 Bytes, ...) - Data: E0 FE 2F E0 CA 48 84 42 09 D1 01 21 88 04 FF F7 ... -- CPU_WriteMem(1024 bytes @ 0x20000198)  returns 0x400 (0007ms, 0257ms total)
T2A3C 000:807 JLINK_WriteReg(R0, 0x08001000)  returns 0x00 (0000ms, 0257ms total)
T2A3C 000:807 JLINK_WriteReg(R1, 0x00000400)  returns 0x00 (0000ms, 0257ms total)
T2A3C 000:807 JLINK_WriteReg(R2, 0x20000198)  returns 0x00 (0000ms, 0257ms total)
T2A3C 000:807 JLINK_WriteReg(R3, 0x00000000)  returns 0x00 (0000ms, 0257ms total)
T2A3C 000:807 JLINK_WriteReg(R4, 0x00000000)  returns 0x00 (0000ms, 0257ms total)
T2A3C 000:807 JLINK_WriteReg(R5, 0x00000000)  returns 0x00 (0000ms, 0257ms total)
T2A3C 000:807 JLINK_WriteReg(R6, 0x00000000)  returns 0x00 (0000ms, 0257ms total)
T2A3C 000:807 JLINK_WriteReg(R7, 0x00000000)  returns 0x00 (0000ms, 0257ms total)
T2A3C 000:807 JLINK_WriteReg(R8, 0x00000000)  returns 0x00 (0000ms, 0257ms total)
T2A3C 000:807 JLINK_WriteReg(R9, 0x20000194)  returns 0x00 (0000ms, 0257ms total)
T2A3C 000:807 JLINK_WriteReg(R10, 0x00000000)  returns 0x00 (0000ms, 0257ms total)
T2A3C 000:807 JLINK_WriteReg(R11, 0x00000000)  returns 0x00 (0000ms, 0257ms total)
T2A3C 000:807 JLINK_WriteReg(R12, 0x00000000)  returns 0x00 (0000ms, 0257ms total)
T2A3C 000:807 JLINK_WriteReg(R13 (SP), 0x20001000)  returns 0x00 (0000ms, 0257ms total)
T2A3C 000:807 JLINK_WriteReg(R14, 0x20000001)  returns 0x00 (0000ms, 0257ms total)
T2A3C 000:807 JLINK_WriteReg(R15 (PC), 0x20000120)  returns 0x00 (0000ms, 0257ms total)
T2A3C 000:807 JLINK_WriteReg(XPSR, 0x01000000)  returns 0x00 (0000ms, 0257ms total)
T2A3C 000:807 JLINK_WriteReg(MSP, 0x20001000)  returns 0x00 (0000ms, 0257ms total)
T2A3C 000:807 JLINK_WriteReg(PSP, 0x20001000)  returns 0x00 (0000ms, 0257ms total)
T2A3C 000:807 JLINK_WriteReg(CFBP, 0x00000000)  returns 0x00 (0000ms, 0257ms total)
T2A3C 000:807 JLINK_SetBPEx(Addr = 0x20000000, Type = 0xFFFFFFF2)  returns 0x0000000A (0000ms, 0257ms total)
T2A3C 000:807 JLINK_Go() -- CPU_ReadMem(4 bytes @ 0xE0001000) (0002ms, 0259ms total)
T2A3C 000:809 JLINK_IsHalted()  returns FALSE (0001ms, 0260ms total)
T2A3C 000:811 JLINK_IsHalted()  returns FALSE (0000ms, 0259ms total)
T2A3C 000:812 JLINK_IsHalted()  returns FALSE (0001ms, 0260ms total)
T2A3C 000:814 JLINK_IsHalted() -- CPU_ReadMem(2 bytes @ 0x20000000)  returns TRUE (0002ms, 0261ms total)
T2A3C 000:816 JLINK_ReadReg(R15 (PC))  returns 0x20000000 (0000ms, 0259ms total)
T2A3C 000:816 JLINK_ClrBPEx(BPHandle = 0x0000000A)  returns 0x00 (0000ms, 0259ms total)
T2A3C 000:816 JLINK_ReadReg(R0)  returns 0x00000000 (0000ms, 0259ms total)
T2A3C 000:817 JLINK_WriteMem(0x20000198, 0x0400 Bytes, ...) - Data: A5 43 1D 84 09 B1 08 29 0A D1 00 EB 61 00 05 68 ... -- CPU_WriteMem(1024 bytes @ 0x20000198)  returns 0x400 (0006ms, 0265ms total)
T2A3C 000:823 JLINK_WriteReg(R0, 0x08001400)  returns 0x00 (0000ms, 0265ms total)
T2A3C 000:823 JLINK_WriteReg(R1, 0x00000400)  returns 0x00 (0000ms, 0265ms total)
T2A3C 000:823 JLINK_WriteReg(R2, 0x20000198)  returns 0x00 (0000ms, 0265ms total)
T2A3C 000:823 JLINK_WriteReg(R3, 0x00000000)  returns 0x00 (0000ms, 0265ms total)
T2A3C 000:823 JLINK_WriteReg(R4, 0x00000000)  returns 0x00 (0000ms, 0265ms total)
T2A3C 000:823 JLINK_WriteReg(R5, 0x00000000)  returns 0x00 (0000ms, 0265ms total)
T2A3C 000:823 JLINK_WriteReg(R6, 0x00000000)  returns 0x00 (0000ms, 0265ms total)
T2A3C 000:823 JLINK_WriteReg(R7, 0x00000000)  returns 0x00 (0000ms, 0265ms total)
T2A3C 000:823 JLINK_WriteReg(R8, 0x00000000)  returns 0x00 (0000ms, 0265ms total)
T2A3C 000:823 JLINK_WriteReg(R9, 0x20000194)  returns 0x00 (0000ms, 0265ms total)
T2A3C 000:823 JLINK_WriteReg(R10, 0x00000000)  returns 0x00 (0000ms, 0265ms total)
T2A3C 000:823 JLINK_WriteReg(R11, 0x00000000)  returns 0x00 (0000ms, 0265ms total)
T2A3C 000:823 JLINK_WriteReg(R12, 0x00000000)  returns 0x00 (0000ms, 0265ms total)
T2A3C 000:823 JLINK_WriteReg(R13 (SP), 0x20001000)  returns 0x00 (0000ms, 0265ms total)
T2A3C 000:823 JLINK_WriteReg(R14, 0x20000001)  returns 0x00 (0000ms, 0265ms total)
T2A3C 000:823 JLINK_WriteReg(R15 (PC), 0x20000120)  returns 0x00 (0000ms, 0265ms total)
T2A3C 000:823 JLINK_WriteReg(XPSR, 0x01000000)  returns 0x00 (0000ms, 0265ms total)
T2A3C 000:823 JLINK_WriteReg(MSP, 0x20001000)  returns 0x00 (0000ms, 0265ms total)
T2A3C 000:823 JLINK_WriteReg(PSP, 0x20001000)  returns 0x00 (0000ms, 0265ms total)
T2A3C 000:823 JLINK_WriteReg(CFBP, 0x00000000)  returns 0x00 (0000ms, 0265ms total)
T2A3C 000:824 JLINK_SetBPEx(Addr = 0x20000000, Type = 0xFFFFFFF2)  returns 0x0000000B (0000ms, 0266ms total)
T2A3C 000:824 JLINK_Go() -- CPU_ReadMem(4 bytes @ 0xE0001000) (0002ms, 0268ms total)
T2A3C 000:826 JLINK_IsHalted()  returns FALSE (0001ms, 0269ms total)
T2A3C 000:830 JLINK_IsHalted()  returns FALSE (0000ms, 0268ms total)
T2A3C 000:832 JLINK_IsHalted() -- CPU_ReadMem(2 bytes @ 0x20000000)  returns TRUE (0003ms, 0271ms total)
T2A3C 000:835 JLINK_ReadReg(R15 (PC))  returns 0x20000000 (0000ms, 0268ms total)
T2A3C 000:835 JLINK_ClrBPEx(BPHandle = 0x0000000B)  returns 0x00 (0000ms, 0268ms total)
T2A3C 000:835 JLINK_ReadReg(R0)  returns 0x00000000 (0000ms, 0268ms total)
T2A3C 000:836 JLINK_WriteMem(0x20000198, 0x0400 Bytes, ...) - Data: 31 43 4F F6 F5 76 32 40 44 F0 01 06 32 43 01 83 ... -- CPU_WriteMem(1024 bytes @ 0x20000198)  returns 0x400 (0006ms, 0274ms total)
T2A3C 000:842 JLINK_WriteReg(R0, 0x08001800)  returns 0x00 (0000ms, 0274ms total)
T2A3C 000:842 JLINK_WriteReg(R1, 0x00000400)  returns 0x00 (0000ms, 0274ms total)
T2A3C 000:842 JLINK_WriteReg(R2, 0x20000198)  returns 0x00 (0000ms, 0274ms total)
T2A3C 000:842 JLINK_WriteReg(R3, 0x00000000)  returns 0x00 (0000ms, 0274ms total)
T2A3C 000:842 JLINK_WriteReg(R4, 0x00000000)  returns 0x00 (0000ms, 0274ms total)
T2A3C 000:842 JLINK_WriteReg(R5, 0x00000000)  returns 0x00 (0001ms, 0275ms total)
T2A3C 000:843 JLINK_WriteReg(R6, 0x00000000)  returns 0x00 (0000ms, 0275ms total)
T2A3C 000:843 JLINK_WriteReg(R7, 0x00000000)  returns 0x00 (0000ms, 0275ms total)
T2A3C 000:843 JLINK_WriteReg(R8, 0x00000000)  returns 0x00 (0000ms, 0275ms total)
T2A3C 000:843 JLINK_WriteReg(R9, 0x20000194)  returns 0x00 (0000ms, 0275ms total)
T2A3C 000:843 JLINK_WriteReg(R10, 0x00000000)  returns 0x00 (0000ms, 0275ms total)
T2A3C 000:843 JLINK_WriteReg(R11, 0x00000000)  returns 0x00 (0000ms, 0275ms total)
T2A3C 000:843 JLINK_WriteReg(R12, 0x00000000)  returns 0x00 (0000ms, 0275ms total)
T2A3C 000:843 JLINK_WriteReg(R13 (SP), 0x20001000)  returns 0x00 (0000ms, 0275ms total)
T2A3C 000:843 JLINK_WriteReg(R14, 0x20000001)  returns 0x00 (0000ms, 0275ms total)
T2A3C 000:843 JLINK_WriteReg(R15 (PC), 0x20000120)  returns 0x00 (0000ms, 0275ms total)
T2A3C 000:843 JLINK_WriteReg(XPSR, 0x01000000)  returns 0x00 (0000ms, 0275ms total)
T2A3C 000:843 JLINK_WriteReg(MSP, 0x20001000)  returns 0x00 (0000ms, 0275ms total)
T2A3C 000:843 JLINK_WriteReg(PSP, 0x20001000)  returns 0x00 (0000ms, 0275ms total)
T2A3C 000:843 JLINK_WriteReg(CFBP, 0x00000000)  returns 0x00 (0000ms, 0275ms total)
T2A3C 000:843 JLINK_SetBPEx(Addr = 0x20000000, Type = 0xFFFFFFF2)  returns 0x0000000C (0000ms, 0275ms total)
T2A3C 000:843 JLINK_Go() -- CPU_ReadMem(4 bytes @ 0xE0001000) (0002ms, 0277ms total)
T2A3C 000:845 JLINK_IsHalted()  returns FALSE (0000ms, 0277ms total)
T2A3C 000:847 JLINK_IsHalted()  returns FALSE (0001ms, 0278ms total)
T2A3C 000:850 JLINK_IsHalted() -- CPU_ReadMem(2 bytes @ 0x20000000)  returns TRUE (0003ms, 0280ms total)
T2A3C 000:853 JLINK_ReadReg(R15 (PC))  returns 0x20000000 (0000ms, 0277ms total)
T2A3C 000:853 JLINK_ClrBPEx(BPHandle = 0x0000000C)  returns 0x00 (0000ms, 0277ms total)
T2A3C 000:853 JLINK_ReadReg(R0)  returns 0x00000000 (0000ms, 0277ms total)
T2A3C 000:855 JLINK_WriteMem(0x20000198, 0x0400 Bytes, ...) - Data: EA 48 84 42 09 D1 01 21 C8 04 FF F7 C9 F8 00 21 ... -- CPU_WriteMem(1024 bytes @ 0x20000198)  returns 0x400 (0006ms, 0283ms total)
T2A3C 000:861 JLINK_WriteReg(R0, 0x08001C00)  returns 0x00 (0000ms, 0283ms total)
T2A3C 000:861 JLINK_WriteReg(R1, 0x00000400)  returns 0x00 (0000ms, 0283ms total)
T2A3C 000:861 JLINK_WriteReg(R2, 0x20000198)  returns 0x00 (0000ms, 0283ms total)
T2A3C 000:861 JLINK_WriteReg(R3, 0x00000000)  returns 0x00 (0000ms, 0283ms total)
T2A3C 000:861 JLINK_WriteReg(R4, 0x00000000)  returns 0x00 (0001ms, 0284ms total)
T2A3C 000:862 JLINK_WriteReg(R5, 0x00000000)  returns 0x00 (0000ms, 0284ms total)
T2A3C 000:862 JLINK_WriteReg(R6, 0x00000000)  returns 0x00 (0000ms, 0284ms total)
T2A3C 000:862 JLINK_WriteReg(R7, 0x00000000)  returns 0x00 (0000ms, 0284ms total)
T2A3C 000:862 JLINK_WriteReg(R8, 0x00000000)  returns 0x00 (0000ms, 0284ms total)
T2A3C 000:862 JLINK_WriteReg(R9, 0x20000194)  returns 0x00 (0000ms, 0284ms total)
T2A3C 000:862 JLINK_WriteReg(R10, 0x00000000)  returns 0x00 (0000ms, 0284ms total)
T2A3C 000:862 JLINK_WriteReg(R11, 0x00000000)  returns 0x00 (0000ms, 0284ms total)
T2A3C 000:862 JLINK_WriteReg(R12, 0x00000000)  returns 0x00 (0000ms, 0284ms total)
T2A3C 000:862 JLINK_WriteReg(R13 (SP), 0x20001000)  returns 0x00 (0000ms, 0284ms total)
T2A3C 000:862 JLINK_WriteReg(R14, 0x20000001)  returns 0x00 (0000ms, 0284ms total)
T2A3C 000:862 JLINK_WriteReg(R15 (PC), 0x20000120)  returns 0x00 (0000ms, 0284ms total)
T2A3C 000:862 JLINK_WriteReg(XPSR, 0x01000000)  returns 0x00 (0000ms, 0284ms total)
T2A3C 000:862 JLINK_WriteReg(MSP, 0x20001000)  returns 0x00 (0000ms, 0284ms total)
T2A3C 000:862 JLINK_WriteReg(PSP, 0x20001000)  returns 0x00 (0000ms, 0284ms total)
T2A3C 000:862 JLINK_WriteReg(CFBP, 0x00000000)  returns 0x00 (0001ms, 0285ms total)
T2A3C 000:863 JLINK_SetBPEx(Addr = 0x20000000, Type = 0xFFFFFFF2)  returns 0x0000000D (0000ms, 0285ms total)
T2A3C 000:863 JLINK_Go() -- CPU_ReadMem(4 bytes @ 0xE0001000) (0002ms, 0287ms total)
T2A3C 000:865 JLINK_IsHalted()  returns FALSE (0000ms, 0287ms total)
T2A3C 000:874 JLINK_IsHalted() -- CPU_ReadMem(2 bytes @ 0x20000000)  returns TRUE (0002ms, 0289ms total)
